<Qucs Dataset 0.0.21>
<indep v-sweep 201>
0.000000000000e+00
9.950250000000e-02
1.990050000000e-01
2.985075000000e-01
3.980100000000e-01
4.975125000000e-01
5.970150000000e-01
6.965175000000e-01
7.960200000000e-01
8.955225000000e-01
9.950250000000e-01
1.094527500000e+00
1.194030000000e+00
1.293532500000e+00
1.393035000000e+00
1.492537500000e+00
1.592040000000e+00
1.691542500000e+00
1.791045000000e+00
1.890547500000e+00
1.990050000000e+00
2.089552500000e+00
2.189055000000e+00
2.288557500000e+00
2.388060000000e+00
2.487562500000e+00
2.587065000000e+00
2.686567500000e+00
2.786070000000e+00
2.885572500000e+00
2.985075000000e+00
3.084577500000e+00
3.184080000000e+00
3.283582500000e+00
3.383085000000e+00
3.482587500000e+00
3.582090000000e+00
3.681592500000e+00
3.781095000000e+00
3.880597500000e+00
3.980100000000e+00
4.079602500000e+00
4.179105000000e+00
4.278607500000e+00
4.378110000000e+00
4.477612500000e+00
4.577115000000e+00
4.676617500000e+00
4.776120000000e+00
4.875622500000e+00
4.975125000000e+00
5.074627500000e+00
5.174130000000e+00
5.273632500000e+00
5.373135000000e+00
5.472637500000e+00
5.572140000000e+00
5.671642500000e+00
5.771145000000e+00
5.870647500000e+00
5.970150000000e+00
6.069652500000e+00
6.169155000000e+00
6.268657500000e+00
6.368160000000e+00
6.467662500000e+00
6.567165000000e+00
6.666667500000e+00
6.766170000000e+00
6.865672500000e+00
6.965175000000e+00
7.064677500000e+00
7.164180000000e+00
7.263682500000e+00
7.363185000000e+00
7.462687500000e+00
7.562190000000e+00
7.661692500000e+00
7.761195000000e+00
7.860697500000e+00
7.960200000000e+00
8.059702500000e+00
8.159205000000e+00
8.258707500000e+00
8.358210000000e+00
8.457712500000e+00
8.557215000000e+00
8.656717500000e+00
8.756220000000e+00
8.855722500000e+00
8.955225000000e+00
9.054727500000e+00
9.154230000000e+00
9.253732500000e+00
9.353235000000e+00
9.452737500000e+00
9.552240000000e+00
9.651742500000e+00
9.751245000000e+00
9.850747500000e+00
9.950250000000e+00
1.004975250000e+01
1.014925500000e+01
1.024875750000e+01
1.034826000000e+01
1.044776250000e+01
1.054726500000e+01
1.064676750000e+01
1.074627000000e+01
1.084577250000e+01
1.094527500000e+01
1.104477750000e+01
1.114428000000e+01
1.124378250000e+01
1.134328500000e+01
1.144278750000e+01
1.154229000000e+01
1.164179250000e+01
1.174129500000e+01
1.184079750000e+01
1.194030000000e+01
1.203980250000e+01
1.213930500000e+01
1.223880750000e+01
1.233831000000e+01
1.243781250000e+01
1.253731500000e+01
1.263681750000e+01
1.273632000000e+01
1.283582250000e+01
1.293532500000e+01
1.303482750000e+01
1.313433000000e+01
1.323383250000e+01
1.333333500000e+01
1.343283750000e+01
1.353234000000e+01
1.363184250000e+01
1.373134500000e+01
1.383084750000e+01
1.393035000000e+01
1.402985250000e+01
1.412935500000e+01
1.422885750000e+01
1.432836000000e+01
1.442786250000e+01
1.452736500000e+01
1.462686750000e+01
1.472637000000e+01
1.482587250000e+01
1.492537500000e+01
1.502487750000e+01
1.512438000000e+01
1.522388250000e+01
1.532338500000e+01
1.542288750000e+01
1.552239000000e+01
1.562189250000e+01
1.572139500000e+01
1.582089750000e+01
1.592040000000e+01
1.601990250000e+01
1.611940500000e+01
1.621890750000e+01
1.631841000000e+01
1.641791250000e+01
1.651741500000e+01
1.661691750000e+01
1.671642000000e+01
1.681592250000e+01
1.691542500000e+01
1.701492750000e+01
1.711443000000e+01
1.721393250000e+01
1.731343500000e+01
1.741293750000e+01
1.751244000000e+01
1.761194250000e+01
1.771144500000e+01
1.781094750000e+01
1.791045000000e+01
1.800995250000e+01
1.810945500000e+01
1.820895750000e+01
1.830846000000e+01
1.840796250000e+01
1.850746500000e+01
1.860696750000e+01
1.870647000000e+01
1.880597250000e+01
1.890547500000e+01
1.900497750000e+01
1.910448000000e+01
1.920398250000e+01
1.930348500000e+01
1.940298750000e+01
1.950249000000e+01
1.960199250000e+01
1.970149500000e+01
1.980099750000e+01
1.990050000000e+01
</indep>
<dep v(prv) v-sweep>
-6.774670131881e-24
1.003310311054e-06
1.526127856030e-05
2.168136120564e-04
2.872749094962e-03
2.351774646884e-02
7.807684522144e-02
1.524925283585e-01
2.356655345823e-01
3.230865820123e-01
4.134752494091e-01
5.055255656563e-01
5.987035971145e-01
6.927408447083e-01
7.874404600781e-01
8.826621469798e-01
9.783054896775e-01
1.074296178820e+00
1.170577724189e+00
1.267106237977e+00
1.363846977927e+00
1.460771989819e+00
1.557858458743e+00
1.655087529496e+00
1.752443445352e+00
1.849912907852e+00
1.947484593132e+00
2.045148781178e+00
2.142897067871e+00
2.240722138673e+00
2.338617588796e+00
2.436577778892e+00
2.534597718185e+00
2.632672969020e+00
2.730799568310e+00
2.828973962404e+00
2.927192952739e+00
3.025453650192e+00
3.123753436531e+00
3.222089931663e+00
3.320460965684e+00
3.418864554900e+00
3.517298881171e+00
3.615762274026e+00
3.714253195138e+00
3.812770224774e+00
3.911312049936e+00
4.009877453950e+00
4.108465307289e+00
4.207074559460e+00
4.305704231818e+00
4.404353411166e+00
4.503021244068e+00
4.601706931746e+00
4.700409725526e+00
4.799128922739e+00
4.897863863033e+00
4.996613925049e+00
5.095378523418e+00
5.194157106035e+00
5.292949151591e+00
5.391754167331e+00
5.490571687006e+00
5.589401269010e+00
5.688242494677e+00
5.787094966720e+00
5.885958307803e+00
5.984832159227e+00
6.083716179729e+00
6.182610044368e+00
6.281513443502e+00
6.380426081844e+00
6.479347677592e+00
6.578277961617e+00
6.677216676720e+00
6.776163576934e+00
6.875118426884e+00
6.974081001183e+00
7.073051083881e+00
7.172028467944e+00
7.271012954769e+00
7.370004353736e+00
7.469002481782e+00
7.568007163013e+00
7.667018228328e+00
7.766035515080e+00
7.865058866750e+00
7.964088132642e+00
8.063123167600e+00
8.162163831739e+00
8.261209990193e+00
8.360261512879e+00
8.459318274272e+00
8.558380153197e+00
8.657447032629e+00
8.756518799504e+00
8.855595344549e+00
8.954676562106e+00
9.053762349979e+00
9.152852609288e+00
9.251947244318e+00
9.351046162394e+00
9.450149273749e+00
9.549256491408e+00
9.648367731067e+00
9.747482910990e+00
9.846601951906e+00
9.945724776908e+00
1.004485131136e+01
1.014398148281e+01
1.024311522092e+01
1.034225245734e+01
1.044139312569e+01
1.054053716145e+01
1.063968450190e+01
1.073883508605e+01
1.083798885460e+01
1.093714574984e+01
1.103630571561e+01
1.113546869727e+01
1.123463464160e+01
1.133380349680e+01
1.143297521238e+01
1.153214973919e+01
1.163132702931e+01
1.173050703605e+01
1.182968971386e+01
1.192887501837e+01
1.202806290627e+01
1.212725333532e+01
1.222644626433e+01
1.232564165307e+01
1.242483946228e+01
1.252403965365e+01
1.262324218975e+01
1.272244703404e+01
1.282165415082e+01
1.292086350519e+01
1.302007506310e+01
1.311928879121e+01
1.321850465698e+01
1.331772262857e+01
1.341694267484e+01
1.351616476535e+01
1.361538887032e+01
1.371461496062e+01
1.381384300773e+01
1.391307298376e+01
1.401230486141e+01
1.411153861393e+01
1.421077421516e+01
1.431001163947e+01
1.440925086176e+01
1.450849185744e+01
1.460773460242e+01
1.470697907312e+01
1.480622524640e+01
1.490547309960e+01
1.500472261051e+01
1.510397375735e+01
1.520322651878e+01
1.530248087385e+01
1.540173680203e+01
1.550099428319e+01
1.560025329757e+01
1.569951382579e+01
1.579877584885e+01
1.589803934807e+01
1.599730430516e+01
1.609657070213e+01
1.619583852133e+01
1.629510774546e+01
1.639437835751e+01
1.649365034076e+01
1.659292367883e+01
1.669219835560e+01
1.679147435525e+01
1.689075166224e+01
1.699003026129e+01
1.708931013739e+01
1.718859127581e+01
1.728787366204e+01
1.738715728184e+01
1.748644212122e+01
1.758572816639e+01
1.768501540384e+01
1.778430382025e+01
1.788359340253e+01
1.798288413782e+01
1.808217601345e+01
1.818146901699e+01
1.828076313617e+01
1.838005835895e+01
1.847935467347e+01
1.857865206807e+01
1.867795053127e+01
1.877725005177e+01
1.887655061845e+01
1.897585222036e+01
1.907515484673e+01
1.917445848695e+01
</dep>
<dep i(vpri) v-sweep>
-6.863968589539e-27
1.016535170940e-09
1.546244092108e-08
2.196714812632e-07
2.910615449844e-06
2.382773919858e-05
7.910599375877e-05
1.545025668285e-04
2.387718952393e-04
3.273452592471e-04
4.189253600910e-04
5.121890123543e-04
6.065952444975e-04
7.018720182983e-04
7.978198906945e-04
8.942967161653e-04
9.912007553725e-04
1.088456719476e-03
1.186007373649e-03
1.283808251586e-03
1.381824153087e-03
1.480026755459e-03
1.578392943066e-03
1.676903612168e-03
1.775542798347e-03
1.874297027854e-03
1.973154827564e-03
2.072106349338e-03
2.171143078283e-03
2.270257603446e-03
2.369443435615e-03
2.468694861109e-03
2.568006823368e-03
2.667374826244e-03
2.766794854409e-03
2.866263307373e-03
2.965776944410e-03
3.065332838318e-03
3.164928336350e-03
3.264561027043e-03
3.364228711888e-03
3.463929381047e-03
3.563661192412e-03
3.663422453495e-03
3.763211605691e-03
3.863027210553e-03
3.962867937777e-03
4.062732554651e-03
4.162619916759e-03
4.262528959763e-03
4.362458692116e-03
4.462408188586e-03
4.562376584486e-03
4.662363070510e-03
4.762366888116e-03
4.862387325371e-03
4.962423713221e-03
5.062475422116e-03
5.162541858971e-03
5.262622464402e-03
5.362716710232e-03
5.462824097208e-03
5.562944152937e-03
5.663076429991e-03
5.763220504185e-03
5.863375972996e-03
5.963542454115e-03
6.063719584114e-03
6.163907017232e-03
6.264104424244e-03
6.364311491428e-03
6.464527919604e-03
6.564753423255e-03
6.664987729707e-03
6.765230578368e-03
6.865481720029e-03
6.965740916213e-03
7.066007938563e-03
7.166282568283e-03
7.266564595608e-03
7.366853819318e-03
7.467150046281e-03
7.567453091020e-03
7.667762775323e-03
7.768078927860e-03
7.868401383840e-03
7.968729984682e-03
8.069064577702e-03
8.169405015832e-03
8.269751157342e-03
8.370102865588e-03
8.470460008774e-03
8.570822459720e-03
8.671190095653e-03
8.771562798005e-03
8.871940452224e-03
8.972322947594e-03
9.072710177065e-03
9.173102037096e-03
9.273498427500e-03
9.373899251304e-03
9.474304414609e-03
9.574713826467e-03
9.675127398753e-03
9.775545046055e-03
9.875966685559e-03
9.976392236948e-03
1.007682162230e-02
1.017725476600e-02
1.027769159464e-02
1.037813203695e-02
1.047857602368e-02
1.057902348758e-02
1.067947436327e-02
1.077992858722e-02
1.088038609763e-02
1.098084683440e-02
1.108131073908e-02
1.118177775476e-02
1.128224782609e-02
1.138272089914e-02
1.148319692142e-02
1.158367584179e-02
1.168415761045e-02
1.178464217884e-02
1.188512949964e-02
1.198561952675e-02
1.208611221516e-02
1.218660752102e-02
1.228710540154e-02
1.238760581495e-02
1.248810872052e-02
1.258861407847e-02
1.268912184997e-02
1.278963199712e-02
1.289014448287e-02
1.299065927107e-02
1.309117632636e-02
1.319169561422e-02
1.329221710091e-02
1.339274075342e-02
1.349326653950e-02
1.359379442762e-02
1.369432438692e-02
1.379485638724e-02
1.389539039905e-02
1.399592639348e-02
1.409646434224e-02
1.419700421769e-02
1.429754599272e-02
1.439808964083e-02
1.449863513605e-02
1.459918245295e-02
1.469973156662e-02
1.480028245265e-02
1.490083508713e-02
1.500138944665e-02
1.510194550823e-02
1.520250324937e-02
1.530306264800e-02
1.540362368250e-02
1.550418633164e-02
1.560475057464e-02
1.570531639109e-02
1.580588376096e-02
1.590645266464e-02
1.600702308284e-02
1.610759499668e-02
1.620816838759e-02
1.630874323736e-02
1.640931952813e-02
1.650989724233e-02
1.661047636274e-02
1.671105687243e-02
1.681163875480e-02
1.691222199351e-02
1.701280657255e-02
1.711339247615e-02
1.721397968884e-02
1.731456819542e-02
1.741515798096e-02
1.751574903075e-02
1.761634133038e-02
1.771693486565e-02
1.781752962262e-02
1.791812558758e-02
1.801872274704e-02
1.811932108774e-02
1.821992059664e-02
1.832052126092e-02
1.842112306797e-02
1.852172600537e-02
1.862233006092e-02
1.872293522260e-02
1.882354147859e-02
1.892414881727e-02
1.902475722718e-02
1.912536669707e-02
1.922597721583e-02
1.932658877255e-02
1.942720135649e-02
</dep>
